T9038 349291:721.395   SEGGER J-Link V7.55d (beta) Log File
T9038 349291:721.527   DLL Compiled: Sep 28 2021 16:44:40
T9038 349291:721.556   Logging started @ 2023-09-12 07:36
T9038 349291:721.574 - 4221095.800ms
T9038 349291:721.599 JLINK_SetWarnOutHandler(...)
T9038 349291:721.617 - 0.026ms
T9038 349291:721.636 JLINK_OpenEx(...)
T9038 349291:725.535   Firmware: J-Link V9 compiled May  7 2021 16:26:12
T9038 349291:725.900   Firmware: J-Link V9 compiled May  7 2021 16:26:12
T9038 349291:726.031   Decompressing FW timestamp took 105 us
T9038 349291:732.030   Hardware: V9.70
T9038 349291:732.067   S/N: 59768867
T9038 349291:732.085   OEM: SEGGER
T9038 349291:732.104   Feature(s): RDI, GDB, FlashDL, FlashBP, JFlash
T9038 349291:732.941   TELNET listener socket opened on port 19021
T9038 349291:736.790   WEBSRV WEBSRV_Init(): Starting webserver thread(s)
T9038 349291:736.872   WEBSRV Failed to put socket into listener state (port 19080)
T9038 349291:736.897   WEBSRV Failed to put socket into listener state (port 19081)
T9038 349291:737.006   WEBSRV Webserver running on local port 19082
T9038 349291:769.663 - 48.088ms returns "O.K."
T9038 349291:769.760 JLINK_GetEmuCaps()
T9038 349291:769.784 - 0.032ms returns 0xB9FF7BBF
T9038 349291:770.068 JLINK_TIF_GetAvailable(...)
T9038 349291:770.216 - 0.159ms
T9038 349291:770.244 JLINK_SetErrorOutHandler(...)
T9038 349291:770.258 - 0.020ms
T9038 349291:770.279 JLINK_ExecCommand("ProjectFile = "D:\work_project\7.LOST_WATCH\code\ble_bootloader\examples\dfu\bootloader\pca10040\dual_bank_ble_s132\arm5_no_packs\JLinkSettings.ini"", ...). 
T9038 349291:771.860 - 1.591ms returns 0x00
T9038 349291:771.910 JLINK_ExecCommand("Device = nRF52832_xxAA", ...). 
T9038 349291:772.160   Device "NRF52832_XXAA" selected.
T9038 349291:772.555 - 0.639ms returns 0x00
T9038 349291:772.574 JLINK_ExecCommand("DisableConnectionTimeout", ...). 
T9038 349291:772.590 - 0.008ms returns 0x01
T9038 349291:772.610 JLINK_GetHardwareVersion()
T9038 349291:772.626 - 0.024ms returns 97000
T9038 349291:772.642 JLINK_GetDLLVersion()
T9038 349291:772.657 - 0.024ms returns 75504
T9038 349291:772.676 JLINK_GetOEMString(...)
T9038 349291:772.695 JLINK_GetFirmwareString(...)
T9038 349291:772.714 - 0.027ms
T9038 349291:772.747 JLINK_GetDLLVersion()
T9038 349291:772.762 - 0.022ms returns 75504
T9038 349291:772.780 JLINK_GetCompileDateTime()
T9038 349291:772.797 - 0.025ms
T9038 349291:772.819 JLINK_GetFirmwareString(...)
T9038 349291:772.835 - 0.022ms
T9038 349291:772.851 JLINK_GetHardwareVersion()
T9038 349291:772.863 - 0.019ms returns 97000
T9038 349291:772.885 JLINK_GetSN()
T9038 349291:772.901 - 0.022ms returns 59768867
T9038 349291:772.917 JLINK_GetOEMString(...)
T9038 349291:772.937 JLINK_TIF_Select(JLINKARM_TIF_SWD)
T9038 349291:773.407 - 0.481ms returns 0x00
T9038 349291:773.429 JLINK_HasError()
T9038 349291:773.444 JLINK_SetSpeed(2000)
T9038 349291:773.530 - 0.102ms
T9038 349291:773.561 JLINK_GetId()
T9038 349291:773.745   InitTarget() start
T9038 349291:773.771    J-Link Script File: Executing InitTarget()
T9038 349291:775.730   InitTarget() end
T9038 349291:776.246   Found SW-DP with ID 0x2BA01477
T9038 349291:778.177   DPIDR: 0x2BA01477
T9038 349291:778.219   Scanning AP map to find all available APs
T9038 349291:778.964   AP[2]: Stopped AP scan as end of AP map has been reached
T9038 349291:778.995   AP[0]: AHB-AP (IDR: 0x24770011)
T9038 349291:779.017   AP[1]: JTAG-AP (IDR: 0x02880000)
T9038 349291:779.038   Iterating through AP map to find AHB-AP to use
T9038 349291:779.889   AP[0]: Core found
T9038 349291:779.926   AP[0]: AHB-AP ROM base: 0xE00FF000
T9038 349291:780.376   CPUID register: 0x410FC241. Implementer code: 0x41 (ARM)
T9038 349291:780.398   Found Cortex-M4 r0p1, Little endian.
T9038 349291:881.242   -- Max. mem block: 0x00010C20
T9038 349291:881.644   CPU_ReadMem(4 bytes @ 0xE000EDF0)
T9038 349291:882.156   CPU_WriteMem(4 bytes @ 0xE000EDF0)
T9038 349291:882.690   CPU_ReadMem(4 bytes @ 0xE0002000)
T9038 349291:883.171   FPUnit: 6 code (BP) slots and 2 literal slots
T9038 349291:883.291   CPU_ReadMem(4 bytes @ 0xE000EDFC)
T9038 349291:883.827   CPU_WriteMem(4 bytes @ 0xE000EDFC)
T9038 349291:884.405   CPU_ReadMem(4 bytes @ 0xE0001000)
T9038 349291:884.901   CPU_WriteMem(4 bytes @ 0xE0001000)
T9038 349291:885.418   CPU_ReadMem(4 bytes @ 0xE000ED88)
T9038 349291:885.868   CPU_WriteMem(4 bytes @ 0xE000ED88)
T9038 349291:886.337   CPU_ReadMem(4 bytes @ 0xE000ED88)
T9038 349291:886.855   CPU_WriteMem(4 bytes @ 0xE000ED88)
T9038 349291:887.383   CoreSight components:
T9038 349291:887.428   ROMTbl[0] @ E00FF000
T9038 349291:887.460   CPU_ReadMem(64 bytes @ 0xE00FF000)
T9038 349291:888.406   CPU_ReadMem(32 bytes @ 0xE000EFE0)
T9038 349291:888.999   [0][0]: E000E000 CID B105E00D PID 000BB00C SCS-M7
T9038 349291:889.025   CPU_ReadMem(32 bytes @ 0xE0001FE0)
T9038 349291:889.591   [0][1]: E0001000 CID B105E00D PID 003BB002 DWT
T9038 349291:889.611   CPU_ReadMem(32 bytes @ 0xE0002FE0)
T9038 349291:890.180   [0][2]: E0002000 CID B105E00D PID 002BB003 FPB
T9038 349291:890.204   CPU_ReadMem(32 bytes @ 0xE0000FE0)
T9038 349291:890.778   [0][3]: E0000000 CID B105E00D PID 003BB001 ITM
T9038 349291:890.799   CPU_ReadMem(32 bytes @ 0xE0040FE0)
T9038 349291:891.375   [0][4]: E0040000 CID B105900D PID 000BB9A1 TPIU
T9038 349291:891.395   CPU_ReadMem(32 bytes @ 0xE0041FE0)
T9038 349291:891.948   [0][5]: E0041000 CID B105900D PID 000BB925 ETM
T9038 349291:892.117 - 118.562ms returns 0x2BA01477
T9038 349291:892.148 JLINK_GetDLLVersion()
T9038 349291:892.160 - 0.019ms returns 75504
T9038 349291:892.188 JLINK_CORE_GetFound()
T9038 349291:892.201 - 0.019ms returns 0xE0000FF
T9038 349291:892.274 JLINK_GetDebugInfo(0x100 = JLINKARM_ROM_TABLE_ADDR_INDEX)
T9038 349291:892.289   Value=0xE00FF000
T9038 349291:892.307 - 0.039ms returns 0
T9038 349291:892.325 JLINK_GetDebugInfo(0x100 = JLINKARM_ROM_TABLE_ADDR_INDEX)
T9038 349291:892.338   Value=0xE00FF000
T9038 349291:892.357 - 0.037ms returns 0
T9038 349291:892.370 JLINK_GetDebugInfo(0x101 = JLINKARM_DEBUG_INFO_ETM_ADDR_INDEX)
T9038 349291:892.383   Value=0xE0041000
T9038 349291:892.401 - 0.037ms returns 0
T9038 349291:892.417 JLINK_ReadMemEx(0xE0041FD0, 0x20 Bytes, Flags = 0x02000004)
T9038 349291:892.439   CPU_ReadMem(32 bytes @ 0xE0041FD0)
T9038 349291:893.026   Data:  04 00 00 00 00 00 00 00 00 00 00 00 00 00 00 00 ...
T9038 349291:893.049 - 0.638ms returns 32 (0x20)
T9038 349291:893.065 JLINK_GetDebugInfo(0x102 = JLINKARM_DEBUG_INFO_MTB_ADDR_INDEX)
T9038 349291:893.078   Value=0x00000000
T9038 349291:893.096 - 0.037ms returns 0
T9038 349291:893.109 JLINK_GetDebugInfo(0x103 = JLINKARM_DEBUG_INFO_TPIU_ADDR_INDEX)
T9038 349291:893.122   Value=0xE0040000
T9038 349291:893.140 - 0.037ms returns 0
T9038 349291:893.153 JLINK_GetDebugInfo(0x104 = JLINKARM_DEBUG_INFO_ITM_ADDR_INDEX)
T9038 349291:893.165   Value=0xE0000000
T9038 349291:893.184 - 0.037ms returns 0
T9038 349291:893.197 JLINK_GetDebugInfo(0x105 = JLINKARM_DEBUG_INFO_DWT_ADDR_INDEX)
T9038 349291:893.209   Value=0xE0001000
T9038 349291:893.227 - 0.036ms returns 0
T9038 349291:893.240 JLINK_GetDebugInfo(0x106 = JLINKARM_DEBUG_INFO_FPB_ADDR_INDEX)
T9038 349291:893.253   Value=0xE0002000
T9038 349291:893.271 - 0.037ms returns 0
T9038 349291:893.284 JLINK_GetDebugInfo(0x107 = JLINKARM_DEBUG_INFO_NVIC_ADDR_INDEX)
T9038 349291:893.297   Value=0xE000E000
T9038 349291:893.314 - 0.036ms returns 0
T9038 349291:893.327 JLINK_GetDebugInfo(0x10C = JLINKARM_DEBUG_INFO_DBG_ADDR_INDEX)
T9038 349291:893.340   Value=0xE000EDF0
T9038 349291:893.358 - 0.036ms returns 0
T9038 349291:893.371 JLINK_GetDebugInfo(0x01 = Unknown)
T9038 349291:893.383   Value=0x00000001
T9038 349291:893.401 - 0.036ms returns 0
T9038 349291:893.418 JLINK_ReadMemU32(0xE000ED00, 0x1 Items)
T9038 349291:893.439   CPU_ReadMem(4 bytes @ 0xE000ED00)
T9038 349291:893.777   Data:  41 C2 0F 41
T9038 349291:893.800   Debug reg: CPUID
T9038 349291:893.819 - 0.407ms returns 1 (0x1)
T9038 349291:893.834 JLINK_GetDebugInfo(0x10F = JLINKARM_DEBUG_INFO_HAS_CORTEX_M_SECURITY_EXT_INDEX)
T9038 349291:893.850   Value=0x00000000
T9038 349291:893.871 - 0.043ms returns 0
T9038 349291:893.885 JLINK_HasError()
T9038 349291:893.901 JLINK_SetResetType(JLINKARM_CM3_RESET_TYPE_NORMAL)
T9038 349291:893.914 - 0.019ms returns JLINKARM_CM3_RESET_TYPE_NORMAL
T9038 349291:893.928 JLINK_Reset()
T9038 349291:893.947   CPU is running
T9038 349291:893.967   CPU_WriteMem(4 bytes @ 0xE000EDF0)
T9038 349291:894.306   CPU is running
T9038 349291:894.334   CPU_WriteMem(4 bytes @ 0xE000EDFC)
T9038 349291:894.766   Reset: Halt core after reset via DEMCR.VC_CORERESET.
T9038 349291:895.198   Reset: Reset device via AIRCR.SYSRESETREQ.
T9038 349291:895.229   CPU is running
T9038 349291:895.250   CPU_WriteMem(4 bytes @ 0xE000ED0C)
T9038 349291:948.225   CPU_ReadMem(4 bytes @ 0xE000EDF0)
T9038 349291:948.887   CPU_ReadMem(4 bytes @ 0xE000EDF0)
T9038 349291:949.502   CPU is running
T9038 349291:949.585   CPU_WriteMem(4 bytes @ 0xE000EDF0)
T9038 349291:950.200   CPU is running
T9038 349291:950.270   CPU_WriteMem(4 bytes @ 0xE000EDFC)
T9038 349291:956.422   CPU_ReadMem(4 bytes @ 0xE000EDF0)
T9038 349291:960.129   CPU_WriteMem(4 bytes @ 0xE0002000)
T9038 349291:960.502   CPU_ReadMem(4 bytes @ 0xE000EDFC)
T9038 349291:960.851   CPU_ReadMem(4 bytes @ 0xE0001000)
T9038 349291:961.193 - 67.278ms
T9038 349291:961.263 JLINK_HasError()
T9038 349291:961.284 JLINK_ReadReg(R15 (PC))
T9038 349291:961.301 - 0.023ms returns 0x000008E4
T9038 349291:961.315 JLINK_ReadReg(XPSR)
T9038 349291:961.328 - 0.019ms returns 0x01000000
T9038 349291:961.343 JLINK_Halt()
T9038 349291:961.355 - 0.018ms returns 0x00
T9038 349291:961.369 JLINK_ReadMemU32(0xE000EDF0, 0x1 Items)
T9038 349291:961.388   CPU_ReadMem(4 bytes @ 0xE000EDF0)
T9038 349291:961.725   Data:  03 00 03 00
T9038 349291:961.745   Debug reg: DHCSR
T9038 349291:961.764 - 0.401ms returns 1 (0x1)
T9038 349291:961.784 JLINK_WriteU32_64(0xE000EDF0, 0xA05F0003)
T9038 349291:961.797   Debug reg: DHCSR
T9038 349291:962.132   CPU_WriteMem(4 bytes @ 0xE000EDF0)
T9038 349291:962.520 - 0.749ms returns 0 (0x00000000)
T9038 349291:962.543 JLINK_WriteU32_64(0xE000EDFC, 0x01000000)
T9038 349291:962.557   Debug reg: DEMCR
T9038 349291:962.582   CPU_WriteMem(4 bytes @ 0xE000EDFC)
T9038 349291:962.983 - 0.457ms returns 0 (0x00000000)
T9038 349291:963.050 JLINK_GetHWStatus(...)
T9038 349291:963.194 - 0.150ms returns 0
T9038 349291:963.219 JLINK_GetNumBPUnits(Type = 0xFFFFFF00)
T9038 349291:963.233 - 0.019ms returns 0x06
T9038 349291:963.246 JLINK_GetNumBPUnits(Type = 0xF0)
T9038 349291:963.259 - 0.018ms returns 0x2000
T9038 349291:963.272 JLINK_GetNumWPUnits()
T9038 349291:963.285 - 0.018ms returns 4
T9038 349291:963.306 JLINK_GetSpeed()
T9038 349291:963.318 - 0.018ms returns 2000
T9038 349291:963.335 JLINK_ReadMemU32(0xE000E004, 0x1 Items)
T9038 349291:963.352   CPU_ReadMem(4 bytes @ 0xE000E004)
T9038 349291:963.721   Data:  01 00 00 00
T9038 349291:963.740 - 0.411ms returns 1 (0x1)
T9038 349291:963.754 JLINK_ReadMemU32(0xE000E004, 0x1 Items)
T9038 349291:963.768   CPU_ReadMem(4 bytes @ 0xE000E004)
T9038 349291:964.093   Data:  01 00 00 00
T9038 349291:964.111 - 0.363ms returns 1 (0x1)
T9038 349291:964.126 JLINK_WriteMemEx(0xE0001000, 0x0000001C Bytes, Flags = 0x02000004)
T9038 349291:964.140   Data:  01 00 00 00 00 00 00 00 00 00 00 00 00 00 00 00 ...
T9038 349291:964.163   CPU_WriteMem(28 bytes @ 0xE0001000)
T9038 349291:964.786 - 0.667ms returns 0x1C
T9038 349291:964.810 JLINK_HasError()
T9038 349291:964.824 JLINK_ReadReg(R15 (PC))
T9038 349291:964.839 - 0.021ms returns 0x000008E4
T9038 349291:964.852 JLINK_ReadReg(XPSR)
T9038 349291:964.865 - 0.019ms returns 0x01000000
T9038 349291:971.401 JLINK_ReadMemEx(0xE0001004, 0x4 Bytes, Flags = 0x02000000)
T9038 349291:971.435   Data:  00 00 00 00
T9038 349291:971.454   Debug reg: DWT_CYCCNT
T9038 349291:971.472 - 0.077ms returns 4 (0x4)
T9038 349292:055.508 JLINK_HasError()
T9038 349292:055.547 JLINK_SetResetType(JLINKARM_CM3_RESET_TYPE_NORMAL)
T9038 349292:055.561 - 0.020ms returns JLINKARM_CM3_RESET_TYPE_NORMAL
T9038 349292:055.579 JLINK_Reset()
T9038 349292:055.608   CPU_WriteMem(4 bytes @ 0xE000EDF0)
T9038 349292:055.970   CPU_WriteMem(4 bytes @ 0xE000EDFC)
T9038 349292:056.328   Reset: Halt core after reset via DEMCR.VC_CORERESET.
T9038 349292:056.648   Reset: Reset device via AIRCR.SYSRESETREQ.
T9038 349292:056.668   CPU_WriteMem(4 bytes @ 0xE000ED0C)
T9038 349292:109.423   CPU_ReadMem(4 bytes @ 0xE000EDF0)
T9038 349292:109.982   CPU_ReadMem(4 bytes @ 0xE000EDF0)
T9038 349292:110.485   CPU_WriteMem(4 bytes @ 0xE000EDF0)
T9038 349292:111.037   CPU_WriteMem(4 bytes @ 0xE000EDFC)
T9038 349292:116.859   CPU_ReadMem(4 bytes @ 0xE000EDF0)
T9038 349292:121.288   CPU_WriteMem(4 bytes @ 0xE0002000)
T9038 349292:121.841   CPU_ReadMem(4 bytes @ 0xE000EDFC)
T9038 349292:122.461   CPU_ReadMem(4 bytes @ 0xE0001000)
T9038 349292:123.030 - 67.481ms
T9038 349292:123.195 JLINK_HasError()
T9038 349292:123.231 JLINK_ReadReg(R15 (PC))
T9038 349292:123.269 - 0.053ms returns 0x000008E4
T9038 349292:123.302 JLINK_ReadReg(XPSR)
T9038 349292:123.333 - 0.045ms returns 0x01000000
T9038 349292:123.520 JLINK_ReadMemEx(0x000008E4, 0x3C Bytes, Flags = 0x02000000)
T9038 349292:123.567   CPU_ReadMem(128 bytes @ 0x000008C0)
T9038 349292:125.104    -- Updating C cache (128 bytes @ 0x000008C0)
T9038 349292:125.188    -- Read from C cache (60 bytes @ 0x000008E4)
T9038 349292:125.238   Data:  06 4B 18 47 06 4A 10 60 01 68 81 F3 08 88 40 68 ...
T9038 349292:125.282 - 1.777ms returns 60 (0x3C)
T9038 349294:097.058 JLINK_HasError()
T9038 349294:097.102 JLINK_ReadReg(R0)
T9038 349294:097.480 - 0.386ms returns 0x00000000
T9038 349294:097.497 JLINK_ReadReg(R1)
T9038 349294:097.510 - 0.019ms returns 0x00000000
T9038 349294:097.524 JLINK_ReadReg(R2)
T9038 349294:097.536 - 0.019ms returns 0x00000000
T9038 349294:097.550 JLINK_ReadReg(R3)
T9038 349294:097.563 - 0.019ms returns 0x00000000
T9038 349294:097.576 JLINK_ReadReg(R4)
T9038 349294:097.588 - 0.018ms returns 0x00000000
T9038 349294:097.602 JLINK_ReadReg(R5)
T9038 349294:097.615 - 0.019ms returns 0x00000000
T9038 349294:097.628 JLINK_ReadReg(R6)
T9038 349294:097.641 - 0.018ms returns 0x00000000
T9038 349294:097.654 JLINK_ReadReg(R7)
T9038 349294:097.667 - 0.019ms returns 0x00000000
T9038 349294:097.680 JLINK_ReadReg(R8)
T9038 349294:097.693 - 0.019ms returns 0x00000000
T9038 349294:097.707 JLINK_ReadReg(R9)
T9038 349294:097.719 - 0.019ms returns 0x00000000
T9038 349294:097.735 JLINK_ReadReg(R10)
T9038 349294:097.749 - 0.020ms returns 0x00000000
T9038 349294:097.762 JLINK_ReadReg(R11)
T9038 349294:097.775 - 0.019ms returns 0x00000000
T9038 349294:097.789 JLINK_ReadReg(R12)
T9038 349294:097.801 - 0.018ms returns 0x00000000
T9038 349294:097.814 JLINK_ReadReg(R13 (SP))
T9038 349294:097.828 - 0.019ms returns 0x20000400
T9038 349294:097.841 JLINK_ReadReg(R14)
T9038 349294:097.854 - 0.018ms returns 0xFFFFFFFF
T9038 349294:097.867 JLINK_ReadReg(R15 (PC))
T9038 349294:097.880 - 0.019ms returns 0x000008E4
T9038 349294:097.893 JLINK_ReadReg(XPSR)
T9038 349294:097.907 - 0.019ms returns 0x01000000
T9038 349294:097.920 JLINK_ReadReg(MSP)
T9038 349294:097.933 - 0.018ms returns 0x20000400
T9038 349294:097.946 JLINK_ReadReg(PSP)
T9038 349294:097.959 - 0.018ms returns 0x00000000
T9038 349294:097.972 JLINK_ReadReg(CFBP)
T9038 349294:097.984 - 0.018ms returns 0x00000000
T9038 349294:097.997 JLINK_ReadReg(FPSCR)
T9038 349294:103.344 - 5.355ms returns 0x00000000
T9038 349294:103.366 JLINK_ReadReg(FPS0)
T9038 349294:103.379 - 0.020ms returns 0x00000000
T9038 349294:103.393 JLINK_ReadReg(FPS1)
T9038 349294:103.405 - 0.019ms returns 0x00000000
T9038 349294:103.421 JLINK_ReadReg(FPS2)
T9038 349294:103.434 - 0.019ms returns 0x00000000
T9038 349294:103.449 JLINK_ReadReg(FPS3)
T9038 349294:103.462 - 0.019ms returns 0x00000000
T9038 349294:103.478 JLINK_ReadReg(FPS4)
T9038 349294:103.491 - 0.019ms returns 0x00000000
T9038 349294:103.505 JLINK_ReadReg(FPS5)
T9038 349294:103.518 - 0.019ms returns 0x00000000
T9038 349294:103.534 JLINK_ReadReg(FPS6)
T9038 349294:103.610 - 0.085ms returns 0x00000000
T9038 349294:103.628 JLINK_ReadReg(FPS7)
T9038 349294:103.641 - 0.019ms returns 0x00000000
T9038 349294:103.657 JLINK_ReadReg(FPS8)
T9038 349294:103.670 - 0.019ms returns 0x00000000
T9038 349294:103.685 JLINK_ReadReg(FPS9)
T9038 349294:103.698 - 0.019ms returns 0x00000000
T9038 349294:103.716 JLINK_ReadReg(FPS10)
T9038 349294:103.730 - 0.019ms returns 0x00000000
T9038 349294:103.745 JLINK_ReadReg(FPS11)
T9038 349294:103.758 - 0.019ms returns 0x00000000
T9038 349294:103.773 JLINK_ReadReg(FPS12)
T9038 349294:103.786 - 0.019ms returns 0x00000000
T9038 349294:103.801 JLINK_ReadReg(FPS13)
T9038 349294:103.814 - 0.019ms returns 0x00000000
T9038 349294:103.829 JLINK_ReadReg(FPS14)
T9038 349294:103.842 - 0.018ms returns 0x00000000
T9038 349294:103.857 JLINK_ReadReg(FPS15)
T9038 349294:103.870 - 0.019ms returns 0x00000000
T9038 349294:103.885 JLINK_ReadReg(FPS16)
T9038 349294:103.898 - 0.018ms returns 0x00000000
T9038 349294:103.913 JLINK_ReadReg(FPS17)
T9038 349294:103.925 - 0.018ms returns 0x00000000
T9038 349294:103.940 JLINK_ReadReg(FPS18)
T9038 349294:103.953 - 0.019ms returns 0x00000000
T9038 349294:103.968 JLINK_ReadReg(FPS19)
T9038 349294:103.981 - 0.018ms returns 0x00000000
T9038 349294:103.996 JLINK_ReadReg(FPS20)
T9038 349294:104.009 - 0.019ms returns 0x00000000
T9038 349294:104.024 JLINK_ReadReg(FPS21)
T9038 349294:104.036 - 0.018ms returns 0x00000000
T9038 349294:104.051 JLINK_ReadReg(FPS22)
T9038 349294:104.064 - 0.019ms returns 0x00000000
T9038 349294:104.079 JLINK_ReadReg(FPS23)
T9038 349294:104.092 - 0.019ms returns 0x00000000
T9038 349294:104.108 JLINK_ReadReg(FPS24)
T9038 349294:104.120 - 0.019ms returns 0x00000000
T9038 349294:104.135 JLINK_ReadReg(FPS25)
T9038 349294:104.148 - 0.019ms returns 0x00000000
T9038 349294:104.164 JLINK_ReadReg(FPS26)
T9038 349294:104.177 - 0.019ms returns 0x00000000
T9038 349294:104.192 JLINK_ReadReg(FPS27)
T9038 349294:104.205 - 0.019ms returns 0x00000000
T9038 349294:104.220 JLINK_ReadReg(FPS28)
T9038 349294:104.232 - 0.018ms returns 0x00000000
T9038 349294:104.247 JLINK_ReadReg(FPS29)
T9038 349294:104.260 - 0.019ms returns 0x00000000
T9038 349294:104.275 JLINK_ReadReg(FPS30)
T9038 349294:104.288 - 0.019ms returns 0x00000000
T9038 349294:104.303 JLINK_ReadReg(FPS31)
T9038 349294:104.316 - 0.019ms returns 0x00000000
T1F74 349294:201.591 JLINK_ReadMemEx(0x000008E4, 0x2 Bytes, Flags = 0x02000000)
T1F74 349294:201.634    -- Read from C cache (2 bytes @ 0x000008E4)
T1F74 349294:201.659   Data:  06 4B
T1F74 349294:201.683 - 0.100ms returns 2 (0x2)
T1F74 349294:201.701 JLINK_HasError()
T1F74 349294:201.740 JLINK_SetBPEx(Addr = 0x000798CC, Type = 0xFFFFFFF2)
T1F74 349294:201.768 - 0.046ms returns 0x00000001
T1F74 349294:201.786 JLINK_HasError()
T1F74 349294:201.804 JLINK_SetBPEx(Addr = 0x00079944, Type = 0xFFFFFFF2)
T1F74 349294:201.821 - 0.025ms returns 0x00000002
T1F74 349294:201.838 JLINK_HasError()
T1F74 349294:201.855 JLINK_SetBPEx(Addr = 0x000799A2, Type = 0xFFFFFFF2)
T1F74 349294:201.872 - 0.025ms returns 0x00000003
T1F74 349294:201.890 JLINK_HasError()
T1F74 349294:201.909 JLINK_SetBPEx(Addr = 0x000798DE, Type = 0xFFFFFFF2)
T1F74 349294:201.923 - 0.020ms returns 0x00000004
T1F74 349294:201.937 JLINK_HasError()
T1F74 349294:201.950 JLINK_HasError()
T1F74 349294:201.968 JLINK_Go()
T1F74 349294:201.989   CPU_WriteMem(4 bytes @ 0xE0002000)
T1F74 349294:202.383   CPU_WriteMem(4 bytes @ 0xE0002000)
T1F74 349294:202.727   CPU_WriteMem(4 bytes @ 0xE0002000)
T1F74 349294:203.071   CPU_WriteMem(4 bytes @ 0xE0002000)
T1F74 349294:203.477   CPU_ReadMem(4 bytes @ 0xE0001000)
T1F74 349294:203.795   CPU_WriteMem(4 bytes @ 0xE0002008)
T1F74 349294:203.817   CPU_WriteMem(4 bytes @ 0xE000200C)
T1F74 349294:203.836   CPU_WriteMem(4 bytes @ 0xE0002010)
T1F74 349294:203.854   CPU_WriteMem(4 bytes @ 0xE0002014)
T1F74 349294:203.873   CPU_WriteMem(4 bytes @ 0xE0002018)
T1F74 349294:203.892   CPU_WriteMem(4 bytes @ 0xE000201C)
T1F74 349294:205.374   CPU_WriteMem(4 bytes @ 0xE0001004)
T1F74 349294:206.183 - 4.227ms
T1F74 349294:307.264 JLINK_HasError()
T1F74 349294:307.364 JLINK_IsHalted()
T1F74 349294:311.349 - 4.023ms returns TRUE
T1F74 349294:311.411 JLINK_HasError()
T1F74 349294:311.432 JLINK_Halt()
T1F74 349294:311.450 - 0.027ms returns 0x00
T1F74 349294:311.470 JLINK_IsHalted()
T1F74 349294:311.487 - 0.026ms returns TRUE
T1F74 349294:311.620 JLINK_IsHalted()
T1F74 349294:311.649 - 0.039ms returns TRUE
T1F74 349294:311.669 JLINK_IsHalted()
T1F74 349294:311.687 - 0.026ms returns TRUE
T1F74 349294:311.707 JLINK_HasError()
T1F74 349294:311.727 JLINK_ReadReg(R15 (PC))
T1F74 349294:311.751 - 0.033ms returns 0x000798CC
T1F74 349294:311.770 JLINK_ReadReg(XPSR)
T1F74 349294:311.788 - 0.027ms returns 0x61000000
T1F74 349294:311.814 JLINK_HasError()
T1F74 349294:311.840 JLINK_ClrBPEx(BPHandle = 0x00000001)
T1F74 349294:311.859 - 0.027ms returns 0x00
T1F74 349294:311.878 JLINK_HasError()
T1F74 349294:311.896 JLINK_ClrBPEx(BPHandle = 0x00000002)
T1F74 349294:311.914 - 0.027ms returns 0x00
T1F74 349294:311.934 JLINK_HasError()
T1F74 349294:311.952 JLINK_ClrBPEx(BPHandle = 0x00000003)
T1F74 349294:311.970 - 0.026ms returns 0x00
T1F74 349294:311.989 JLINK_HasError()
T1F74 349294:312.007 JLINK_ClrBPEx(BPHandle = 0x00000004)
T1F74 349294:312.025 - 0.027ms returns 0x00
T1F74 349294:312.044 JLINK_HasError()
T1F74 349294:312.063 JLINK_HasError()
T1F74 349294:312.082 JLINK_ReadMemU32(0xE000ED30, 0x1 Items)
T1F74 349294:312.107   CPU_ReadMem(4 bytes @ 0xE000ED30)
T1F74 349294:312.627   Data:  02 00 00 00
T1F74 349294:312.664 - 0.591ms returns 1 (0x1)
T1F74 349294:312.686 JLINK_ReadMemU32(0xE0001028, 0x1 Items)
T1F74 349294:312.712   CPU_ReadMem(4 bytes @ 0xE0001028)
T1F74 349294:313.298   Data:  00 00 00 00
T1F74 349294:313.326   Debug reg: DWT_FUNC[0]
T1F74 349294:313.346 - 0.666ms returns 1 (0x1)
T1F74 349294:313.362 JLINK_ReadMemU32(0xE0001038, 0x1 Items)
T1F74 349294:313.381   CPU_ReadMem(4 bytes @ 0xE0001038)
T1F74 349294:313.863   Data:  00 02 00 00
T1F74 349294:313.891   Debug reg: DWT_FUNC[1]
T1F74 349294:313.911 - 0.555ms returns 1 (0x1)
T1F74 349294:313.927 JLINK_ReadMemU32(0xE0001048, 0x1 Items)
T1F74 349294:313.945   CPU_ReadMem(4 bytes @ 0xE0001048)
T1F74 349294:314.391   Data:  00 00 00 00
T1F74 349294:314.421   Debug reg: DWT_FUNC[2]
T1F74 349294:314.441 - 0.520ms returns 1 (0x1)
T1F74 349294:314.457 JLINK_ReadMemU32(0xE0001058, 0x1 Items)
T1F74 349294:314.476   CPU_ReadMem(4 bytes @ 0xE0001058)
T1F74 349294:315.076   Data:  00 00 00 00
T1F74 349294:315.104   Debug reg: DWT_FUNC[3]
T1F74 349294:315.124 - 0.673ms returns 1 (0x1)
T1F74 349294:315.206 JLINK_HasError()
T1F74 349294:315.222 JLINK_ReadReg(R0)
T1F74 349294:315.238 - 0.023ms returns 0x000798CD
T1F74 349294:315.255 JLINK_ReadReg(R1)
T1F74 349294:315.269 - 0.020ms returns 0x20005438
T1F74 349294:315.283 JLINK_ReadReg(R2)
T1F74 349294:315.297 - 0.020ms returns 0x00000000
T1F74 349294:315.311 JLINK_ReadReg(R3)
T1F74 349294:315.325 - 0.020ms returns 0x00076989
T1F74 349294:315.339 JLINK_ReadReg(R4)
T1F74 349294:315.353 - 0.020ms returns 0x0007B284
T1F74 349294:315.367 JLINK_ReadReg(R5)
T1F74 349294:315.381 - 0.020ms returns 0x0007B284
T1F74 349294:315.396 JLINK_ReadReg(R6)
T1F74 349294:315.409 - 0.020ms returns 0x0007E000
T1F74 349294:315.424 JLINK_ReadReg(R7)
T1F74 349294:315.437 - 0.020ms returns 0x00000000
T1F74 349294:315.452 JLINK_ReadReg(R8)
T1F74 349294:315.466 - 0.020ms returns 0x00000000
T1F74 349294:315.480 JLINK_ReadReg(R9)
T1F74 349294:315.493 - 0.020ms returns 0x00000000
T1F74 349294:315.508 JLINK_ReadReg(R10)
T1F74 349294:315.522 - 0.020ms returns 0x00000000
T1F74 349294:315.536 JLINK_ReadReg(R11)
T1F74 349294:315.550 - 0.020ms returns 0x00000000
T1F74 349294:315.564 JLINK_ReadReg(R12)
T1F74 349294:315.578 - 0.020ms returns 0x00000000
T1F74 349294:315.592 JLINK_ReadReg(R13 (SP))
T1F74 349294:315.606 - 0.021ms returns 0x20005438
T1F74 349294:315.621 JLINK_ReadReg(R14)
T1F74 349294:315.635 - 0.020ms returns 0x000765FD
T1F74 349294:315.649 JLINK_ReadReg(R15 (PC))
T1F74 349294:315.671 - 0.028ms returns 0x000798CC
T1F74 349294:315.685 JLINK_ReadReg(XPSR)
T1F74 349294:315.699 - 0.020ms returns 0x61000000
T1F74 349294:315.713 JLINK_ReadReg(MSP)
T1F74 349294:315.727 - 0.020ms returns 0x20005438
T1F74 349294:315.741 JLINK_ReadReg(PSP)
T1F74 349294:315.755 - 0.020ms returns 0x00000000
T1F74 349294:315.769 JLINK_ReadReg(CFBP)
T1F74 349294:315.783 - 0.020ms returns 0x00000000
T1F74 349294:315.798 JLINK_ReadReg(FPSCR)
T1F74 349294:321.757 - 5.994ms returns 0x00000000
T1F74 349294:321.805 JLINK_ReadReg(FPS0)
T1F74 349294:321.822 - 0.023ms returns 0x00000000
T1F74 349294:321.835 JLINK_ReadReg(FPS1)
T1F74 349294:321.846 - 0.016ms returns 0x00000000
T1F74 349294:321.857 JLINK_ReadReg(FPS2)
T1F74 349294:321.869 - 0.017ms returns 0x00000000
T1F74 349294:321.880 JLINK_ReadReg(FPS3)
T1F74 349294:321.891 - 0.016ms returns 0x00000000
T1F74 349294:321.903 JLINK_ReadReg(FPS4)
T1F74 349294:321.914 - 0.016ms returns 0x00000000
T1F74 349294:321.925 JLINK_ReadReg(FPS5)
T1F74 349294:321.936 - 0.016ms returns 0x00000000
T1F74 349294:321.948 JLINK_ReadReg(FPS6)
T1F74 349294:321.959 - 0.016ms returns 0x00000000
T1F74 349294:321.971 JLINK_ReadReg(FPS7)
T1F74 349294:321.982 - 0.016ms returns 0x00000000
T1F74 349294:321.993 JLINK_ReadReg(FPS8)
T1F74 349294:322.004 - 0.016ms returns 0x00000000
T1F74 349294:322.016 JLINK_ReadReg(FPS9)
T1F74 349294:322.027 - 0.016ms returns 0x00000000
T1F74 349294:322.038 JLINK_ReadReg(FPS10)
T1F74 349294:322.050 - 0.016ms returns 0x00000000
T1F74 349294:322.061 JLINK_ReadReg(FPS11)
T1F74 349294:322.072 - 0.016ms returns 0x00000000
T1F74 349294:322.083 JLINK_ReadReg(FPS12)
T1F74 349294:322.094 - 0.016ms returns 0x00000000
T1F74 349294:322.106 JLINK_ReadReg(FPS13)
T1F74 349294:322.117 - 0.016ms returns 0x00000000
T1F74 349294:322.128 JLINK_ReadReg(FPS14)
T1F74 349294:322.139 - 0.016ms returns 0x00000000
T1F74 349294:322.151 JLINK_ReadReg(FPS15)
T1F74 349294:322.162 - 0.016ms returns 0x00000000
T1F74 349294:322.173 JLINK_ReadReg(FPS16)
T1F74 349294:322.184 - 0.016ms returns 0x00000000
T1F74 349294:322.196 JLINK_ReadReg(FPS17)
T1F74 349294:322.207 - 0.016ms returns 0x00000000
T1F74 349294:322.219 JLINK_ReadReg(FPS18)
T1F74 349294:322.230 - 0.016ms returns 0x00000000
T1F74 349294:322.241 JLINK_ReadReg(FPS19)
T1F74 349294:322.252 - 0.016ms returns 0x00000000
T1F74 349294:322.263 JLINK_ReadReg(FPS20)
T1F74 349294:322.275 - 0.016ms returns 0x00000000
T1F74 349294:322.286 JLINK_ReadReg(FPS21)
T1F74 349294:322.297 - 0.016ms returns 0x00000000
T1F74 349294:322.309 JLINK_ReadReg(FPS22)
T1F74 349294:322.320 - 0.016ms returns 0x00000000
T1F74 349294:322.331 JLINK_ReadReg(FPS23)
T1F74 349294:322.342 - 0.016ms returns 0x00000000
T1F74 349294:322.353 JLINK_ReadReg(FPS24)
T1F74 349294:322.364 - 0.016ms returns 0x00000000
T1F74 349294:322.376 JLINK_ReadReg(FPS25)
T1F74 349294:322.387 - 0.016ms returns 0x00000000
T1F74 349294:322.398 JLINK_ReadReg(FPS26)
T1F74 349294:322.409 - 0.016ms returns 0x00000000
T1F74 349294:322.421 JLINK_ReadReg(FPS27)
T1F74 349294:322.432 - 0.016ms returns 0x00000000
T1F74 349294:322.443 JLINK_ReadReg(FPS28)
T1F74 349294:322.455 - 0.016ms returns 0x00000000
T1F74 349294:322.466 JLINK_ReadReg(FPS29)
T1F74 349294:322.477 - 0.016ms returns 0x00000000
T1F74 349294:322.489 JLINK_ReadReg(FPS30)
T1F74 349294:322.500 - 0.016ms returns 0x00000000
T1F74 349294:322.511 JLINK_ReadReg(FPS31)
T1F74 349294:322.522 - 0.016ms returns 0x00000000
T9038 349294:322.841 JLINK_ReadMemEx(0x00000000, 0x1 Bytes, Flags = 0x02000000)
T9038 349294:322.885   CPU_ReadMem(64 bytes @ 0x00000000)
T9038 349294:323.879    -- Updating C cache (64 bytes @ 0x00000000)
T9038 349294:323.911    -- Read from C cache (1 bytes @ 0x00000000)
T9038 349294:323.933   Data:  00
T9038 349294:323.953 - 1.120ms returns 1 (0x1)
T9038 349294:323.978 JLINK_ReadMemEx(0x00000000, 0x4 Bytes, Flags = 0x02000000)
T9038 349294:323.995    -- Read from C cache (4 bytes @ 0x00000000)
T9038 349294:324.022   Data:  00 04 00 20
T9038 349294:324.046 - 0.076ms returns 4 (0x4)
T9038 349294:332.425 JLINK_HasError()
T9038 349294:332.461 JLINK_ReadMemU32(0xE0001004, 0x1 Items)
T9038 349294:332.486   CPU_ReadMem(4 bytes @ 0xE0001004)
T9038 349294:332.973   Data:  FE 55 00 00
T9038 349294:332.992   Debug reg: DWT_CYCCNT
T9038 349294:333.008 - 0.552ms returns 1 (0x1)
T9038 349294:335.273 JLINK_ReadMemEx(0x000798CC, 0x3C Bytes, Flags = 0x02000000)
T9038 349294:335.307   CPU_ReadMem(128 bytes @ 0x000798C0)
T9038 349294:336.675    -- Updating C cache (128 bytes @ 0x000798C0)
T9038 349294:336.698    -- Read from C cache (60 bytes @ 0x000798CC)
T9038 349294:336.718   Data:  00 27 59 48 00 68 B1 28 01 D1 01 20 00 E0 00 20 ...
T9038 349294:336.735 - 1.467ms returns 60 (0x3C)
T1F74 349294:965.332 JLINK_ReadMemEx(0x000798CC, 0x2 Bytes, Flags = 0x02000000)
T1F74 349294:965.376    -- Read from C cache (2 bytes @ 0x000798CC)
T1F74 349294:965.397   Data:  00 27
T1F74 349294:965.416 - 0.090ms returns 2 (0x2)
T1F74 349294:965.431 JLINK_HasError()
T1F74 349294:965.448 JLINK_SetBPEx(Addr = 0x00079944, Type = 0xFFFFFFF2)
T1F74 349294:965.466 - 0.024ms returns 0x00000005
T1F74 349294:965.480 JLINK_HasError()
T1F74 349294:965.493 JLINK_SetBPEx(Addr = 0x000799A2, Type = 0xFFFFFFF2)
T1F74 349294:965.507 - 0.020ms returns 0x00000006
T1F74 349294:965.520 JLINK_HasError()
T1F74 349294:965.534 JLINK_SetBPEx(Addr = 0x000798DE, Type = 0xFFFFFFF2)
T1F74 349294:965.547 - 0.019ms returns 0x00000007
T1F74 349294:965.560 JLINK_HasError()
T1F74 349294:965.573 JLINK_HasError()
T1F74 349294:965.587 JLINK_Go()
T1F74 349294:965.971   CPU_WriteMem(4 bytes @ 0xE0002000)
T1F74 349294:966.308   CPU_WriteMem(4 bytes @ 0xE0002000)
T1F74 349294:966.631   CPU_WriteMem(4 bytes @ 0xE0002000)
T1F74 349294:966.978   CPU_ReadMem(4 bytes @ 0xE0001000)
T1F74 349294:967.267   CPU_WriteMem(4 bytes @ 0xE0002008)
T1F74 349294:967.287   CPU_WriteMem(4 bytes @ 0xE000200C)
T1F74 349294:967.306   CPU_WriteMem(4 bytes @ 0xE0002010)
T1F74 349294:967.324   CPU_WriteMem(4 bytes @ 0xE0002014)
T1F74 349294:968.772 - 3.194ms
T1F74 349295:069.257 JLINK_HasError()
T1F74 349295:069.294 JLINK_IsHalted()
T1F74 349295:073.043 - 3.766ms returns TRUE
T1F74 349295:073.071 JLINK_HasError()
T1F74 349295:073.086 JLINK_Halt()
T1F74 349295:073.099 - 0.019ms returns 0x00
T1F74 349295:073.113 JLINK_IsHalted()
T1F74 349295:073.126 - 0.019ms returns TRUE
T1F74 349295:073.139 JLINK_IsHalted()
T1F74 349295:073.152 - 0.019ms returns TRUE
T1F74 349295:073.165 JLINK_IsHalted()
T1F74 349295:073.178 - 0.019ms returns TRUE
T1F74 349295:073.192 JLINK_HasError()
T1F74 349295:073.206 JLINK_ReadReg(R15 (PC))
T1F74 349295:073.222 - 0.022ms returns 0x000798DE
T1F74 349295:073.235 JLINK_ReadReg(XPSR)
T1F74 349295:073.248 - 0.019ms returns 0x41000000
T1F74 349295:073.264 JLINK_HasError()
T1F74 349295:073.278 JLINK_ClrBPEx(BPHandle = 0x00000005)
T1F74 349295:073.292 - 0.020ms returns 0x00
T1F74 349295:073.306 JLINK_HasError()
T1F74 349295:073.319 JLINK_ClrBPEx(BPHandle = 0x00000006)
T1F74 349295:073.332 - 0.019ms returns 0x00
T1F74 349295:073.346 JLINK_HasError()
T1F74 349295:073.359 JLINK_ClrBPEx(BPHandle = 0x00000007)
T1F74 349295:073.372 - 0.019ms returns 0x00
T1F74 349295:073.385 JLINK_HasError()
T1F74 349295:073.399 JLINK_HasError()
T1F74 349295:073.412 JLINK_ReadMemU32(0xE000ED30, 0x1 Items)
T1F74 349295:073.431   CPU_ReadMem(4 bytes @ 0xE000ED30)
T1F74 349295:073.823   Data:  02 00 00 00
T1F74 349295:073.849 - 0.443ms returns 1 (0x1)
T1F74 349295:073.867 JLINK_ReadMemU32(0xE0001028, 0x1 Items)
T1F74 349295:073.884   CPU_ReadMem(4 bytes @ 0xE0001028)
T1F74 349295:074.273   Data:  00 00 00 00
T1F74 349295:074.304   Debug reg: DWT_FUNC[0]
T1F74 349295:074.326 - 0.468ms returns 1 (0x1)
T1F74 349295:074.361 JLINK_ReadMemU32(0xE0001038, 0x1 Items)
T1F74 349295:074.382   CPU_ReadMem(4 bytes @ 0xE0001038)
T1F74 349295:074.735   Data:  00 02 00 00
T1F74 349295:074.788   Debug reg: DWT_FUNC[1]
T1F74 349295:074.811 - 0.458ms returns 1 (0x1)
T1F74 349295:074.831 JLINK_ReadMemU32(0xE0001048, 0x1 Items)
T1F74 349295:074.944   CPU_ReadMem(4 bytes @ 0xE0001048)
T1F74 349295:075.344   Data:  00 00 00 00
T1F74 349295:075.371   Debug reg: DWT_FUNC[2]
T1F74 349295:075.389 - 0.564ms returns 1 (0x1)
T1F74 349295:075.404 JLINK_ReadMemU32(0xE0001058, 0x1 Items)
T1F74 349295:075.422   CPU_ReadMem(4 bytes @ 0xE0001058)
T1F74 349295:075.768   Data:  00 00 00 00
T1F74 349295:075.795   Debug reg: DWT_FUNC[3]
T1F74 349295:075.813 - 0.414ms returns 1 (0x1)
T1F74 349295:075.876 JLINK_HasError()
T1F74 349295:075.891 JLINK_ReadReg(R0)
T1F74 349295:075.911 - 0.026ms returns 0x00000000
T1F74 349295:075.925 JLINK_ReadReg(R1)
T1F74 349295:075.938 - 0.019ms returns 0x20005438
T1F74 349295:075.951 JLINK_ReadReg(R2)
T1F74 349295:075.966 - 0.020ms returns 0x00000000
T1F74 349295:075.979 JLINK_ReadReg(R3)
T1F74 349295:075.992 - 0.019ms returns 0x00076989
T1F74 349295:076.005 JLINK_ReadReg(R4)
T1F74 349295:076.018 - 0.018ms returns 0x0007B284
T1F74 349295:076.031 JLINK_ReadReg(R5)
T1F74 349295:076.044 - 0.018ms returns 0x00000000
T1F74 349295:076.057 JLINK_ReadReg(R6)
T1F74 349295:076.069 - 0.018ms returns 0x0007E000
T1F74 349295:076.083 JLINK_ReadReg(R7)
T1F74 349295:076.095 - 0.019ms returns 0x00000000
T1F74 349295:076.108 JLINK_ReadReg(R8)
T1F74 349295:076.121 - 0.018ms returns 0x00000000
T1F74 349295:076.134 JLINK_ReadReg(R9)
T1F74 349295:076.147 - 0.018ms returns 0x00000000
T1F74 349295:076.160 JLINK_ReadReg(R10)
T1F74 349295:076.173 - 0.018ms returns 0x00000000
T1F74 349295:076.186 JLINK_ReadReg(R11)
T1F74 349295:076.198 - 0.018ms returns 0x00000000
T1F74 349295:076.212 JLINK_ReadReg(R12)
T1F74 349295:076.224 - 0.019ms returns 0x00000000
T1F74 349295:076.238 JLINK_ReadReg(R13 (SP))
T1F74 349295:076.250 - 0.019ms returns 0x20005438
T1F74 349295:076.264 JLINK_ReadReg(R14)
T1F74 349295:076.276 - 0.019ms returns 0x000765FD
T1F74 349295:076.290 JLINK_ReadReg(R15 (PC))
T1F74 349295:076.303 - 0.019ms returns 0x000798DE
T1F74 349295:076.316 JLINK_ReadReg(XPSR)
T1F74 349295:076.329 - 0.019ms returns 0x41000000
T1F74 349295:076.342 JLINK_ReadReg(MSP)
T1F74 349295:076.355 - 0.018ms returns 0x20005438
T1F74 349295:076.368 JLINK_ReadReg(PSP)
T1F74 349295:076.381 - 0.018ms returns 0x00000000
T1F74 349295:076.394 JLINK_ReadReg(CFBP)
T1F74 349295:076.406 - 0.019ms returns 0x00000000
T1F74 349295:076.420 JLINK_ReadReg(FPSCR)
T1F74 349295:081.966 - 5.559ms returns 0x00000000
T1F74 349295:081.993 JLINK_ReadReg(FPS0)
T1F74 349295:082.009 - 0.022ms returns 0x00000000
T1F74 349295:082.022 JLINK_ReadReg(FPS1)
T1F74 349295:082.035 - 0.019ms returns 0x00000000
T1F74 349295:082.050 JLINK_ReadReg(FPS2)
T1F74 349295:082.063 - 0.019ms returns 0x00000000
T1F74 349295:082.078 JLINK_ReadReg(FPS3)
T1F74 349295:082.091 - 0.019ms returns 0x00000000
T1F74 349295:082.106 JLINK_ReadReg(FPS4)
T1F74 349295:082.119 - 0.018ms returns 0x00000000
T1F74 349295:082.134 JLINK_ReadReg(FPS5)
T1F74 349295:082.146 - 0.019ms returns 0x00000000
T1F74 349295:082.161 JLINK_ReadReg(FPS6)
T1F74 349295:082.174 - 0.018ms returns 0x00000000
T1F74 349295:082.189 JLINK_ReadReg(FPS7)
T1F74 349295:082.202 - 0.019ms returns 0x00000000
T1F74 349295:082.217 JLINK_ReadReg(FPS8)
T1F74 349295:082.229 - 0.018ms returns 0x00000000
T1F74 349295:082.244 JLINK_ReadReg(FPS9)
T1F74 349295:082.257 - 0.019ms returns 0x00000000
T1F74 349295:082.272 JLINK_ReadReg(FPS10)
T1F74 349295:082.285 - 0.018ms returns 0x00000000
T1F74 349295:082.300 JLINK_ReadReg(FPS11)
T1F74 349295:082.312 - 0.018ms returns 0x00000000
T1F74 349295:082.327 JLINK_ReadReg(FPS12)
T1F74 349295:082.340 - 0.018ms returns 0x00000000
T1F74 349295:082.355 JLINK_ReadReg(FPS13)
T1F74 349295:082.367 - 0.018ms returns 0x00000000
T1F74 349295:082.382 JLINK_ReadReg(FPS14)
T1F74 349295:082.395 - 0.019ms returns 0x00000000
T1F74 349295:082.410 JLINK_ReadReg(FPS15)
T1F74 349295:082.423 - 0.019ms returns 0x00000000
T1F74 349295:082.438 JLINK_ReadReg(FPS16)
T1F74 349295:082.451 - 0.019ms returns 0x00000000
T1F74 349295:082.466 JLINK_ReadReg(FPS17)
T1F74 349295:082.479 - 0.022ms returns 0x00000000
T1F74 349295:082.501 JLINK_ReadReg(FPS18)
T1F74 349295:082.513 - 0.019ms returns 0x00000000
T1F74 349295:082.529 JLINK_ReadReg(FPS19)
T1F74 349295:082.541 - 0.019ms returns 0x00000000
T1F74 349295:082.556 JLINK_ReadReg(FPS20)
T1F74 349295:082.569 - 0.020ms returns 0x00000000
T1F74 349295:082.586 JLINK_ReadReg(FPS21)
T1F74 349295:082.598 - 0.018ms returns 0x00000000
T1F74 349295:082.613 JLINK_ReadReg(FPS22)
T1F74 349295:082.626 - 0.019ms returns 0x00000000
T1F74 349295:082.641 JLINK_ReadReg(FPS23)
T1F74 349295:082.654 - 0.019ms returns 0x00000000
T1F74 349295:082.669 JLINK_ReadReg(FPS24)
T1F74 349295:082.682 - 0.019ms returns 0x00000000
T1F74 349295:082.697 JLINK_ReadReg(FPS25)
T1F74 349295:082.710 - 0.018ms returns 0x00000000
T1F74 349295:082.725 JLINK_ReadReg(FPS26)
T1F74 349295:082.738 - 0.019ms returns 0x00000000
T1F74 349295:082.753 JLINK_ReadReg(FPS27)
T1F74 349295:082.766 - 0.019ms returns 0x00000000
T1F74 349295:082.780 JLINK_ReadReg(FPS28)
T1F74 349295:082.793 - 0.019ms returns 0x00000000
T1F74 349295:082.808 JLINK_ReadReg(FPS29)
T1F74 349295:082.821 - 0.018ms returns 0x00000000
T1F74 349295:082.836 JLINK_ReadReg(FPS30)
T1F74 349295:082.849 - 0.019ms returns 0x00000000
T1F74 349295:082.864 JLINK_ReadReg(FPS31)
T1F74 349295:082.876 - 0.018ms returns 0x00000000
T9038 349295:083.517 JLINK_ReadMemEx(0x00000000, 0x4 Bytes, Flags = 0x02000000)
T9038 349295:083.560   CPU_ReadMem(64 bytes @ 0x00000000)
T9038 349295:084.485    -- Updating C cache (64 bytes @ 0x00000000)
T9038 349295:084.515    -- Read from C cache (4 bytes @ 0x00000000)
T9038 349295:084.535   Data:  00 04 00 20
T9038 349295:084.556 - 1.046ms returns 4 (0x4)
T9038 349295:084.583 JLINK_HasError()
T9038 349295:084.597 JLINK_ReadMemU32(0xE0001004, 0x1 Items)
T9038 349295:084.616   CPU_ReadMem(4 bytes @ 0xE0001004)
T9038 349295:084.979   Data:  13 56 00 00
T9038 349295:085.000   Debug reg: DWT_CYCCNT
T9038 349295:085.018 - 0.427ms returns 1 (0x1)
T9038 349295:087.121 JLINK_ReadMemEx(0x000798DE, 0x2 Bytes, Flags = 0x02000000)
T9038 349295:087.145   CPU_ReadMem(64 bytes @ 0x000798C0)
T9038 349295:087.986    -- Updating C cache (64 bytes @ 0x000798C0)
T9038 349295:088.016    -- Read from C cache (2 bytes @ 0x000798DE)
T9038 349295:088.035   Data:  15 B1
T9038 349295:088.054 - 0.939ms returns 2 (0x2)
T9038 349295:088.072 JLINK_ReadMemEx(0x000798E0, 0x3C Bytes, Flags = 0x02000000)
T9038 349295:088.087   CPU_ReadMem(64 bytes @ 0x00079900)
T9038 349295:088.918    -- Updating C cache (64 bytes @ 0x00079900)
T9038 349295:088.939    -- Read from C cache (60 bytes @ 0x000798E0)
T9038 349295:088.959   Data:  00 20 54 49 08 60 FF F7 F5 FE 00 BF 4F F0 10 20 ...
T9038 349295:088.977 - 0.911ms returns 60 (0x3C)
T1F74 349296:528.635 JLINK_ReadMemEx(0x000798DE, 0x2 Bytes, Flags = 0x02000000)
T1F74 349296:528.677    -- Read from C cache (2 bytes @ 0x000798DE)
T1F74 349296:528.694   Data:  15 B1
T1F74 349296:528.711 - 0.081ms returns 2 (0x2)
T1F74 349296:528.724 JLINK_HasError()
T1F74 349296:528.745 JLINK_Step()
T1F74 349296:529.304    -- Read from C cache (2 bytes @ 0x000798DE)
T1F74 349296:529.335   CPU_ReadMem(4 bytes @ 0xE000ED18)
T1F74 349296:529.782   CPU_WriteMem(4 bytes @ 0xE000ED18)
T1F74 349296:530.165   CPU_ReadMem(4 bytes @ 0xE000ED18)
T1F74 349296:530.667   CPU_WriteMem(4 bytes @ 0xE000ED18)
T1F74 349296:531.142   -- Simulated
T1F74 349296:531.168 - 2.429ms returns 0
T1F74 349296:531.184 JLINK_HasError()
T1F74 349296:531.198 JLINK_ReadReg(R15 (PC))
T1F74 349296:531.220 - 0.028ms returns 0x000798E6
T1F74 349296:531.234 JLINK_ReadReg(XPSR)
T1F74 349296:531.247 - 0.019ms returns 0x41000000
T1F74 349296:531.264 JLINK_HasError()
T1F74 349296:531.278 JLINK_SetBPEx(Addr = 0x00079944, Type = 0xFFFFFFF2)
T1F74 349296:531.292 - 0.020ms returns 0x00000008
T1F74 349296:531.305 JLINK_HasError()
T1F74 349296:531.318 JLINK_SetBPEx(Addr = 0x000799A2, Type = 0xFFFFFFF2)
T1F74 349296:531.331 - 0.019ms returns 0x00000009
T1F74 349296:531.344 JLINK_HasError()
T1F74 349296:531.357 JLINK_SetBPEx(Addr = 0x000798DE, Type = 0xFFFFFFF2)
T1F74 349296:531.377 - 0.025ms returns 0x0000000A
T1F74 349296:531.390 JLINK_HasError()
T1F74 349296:531.403 JLINK_HasError()
T1F74 349296:531.417 JLINK_Go()
T1F74 349296:531.433   CPU_WriteMem(4 bytes @ 0xE0002000)
T1F74 349296:531.936   CPU_WriteMem(4 bytes @ 0xE0002000)
T1F74 349296:532.372   CPU_WriteMem(4 bytes @ 0xE0002000)
T1F74 349296:532.767   CPU_ReadMem(4 bytes @ 0xE0001000)
T1F74 349296:533.148   CPU_WriteMem(4 bytes @ 0xE0001004)
T1F74 349296:534.553 - 3.146ms
T1F74 349296:635.574 JLINK_HasError()
T1F74 349296:635.628 JLINK_IsHalted()
T1F74 349296:636.164 - 0.558ms returns FALSE
T1F74 349296:736.493 JLINK_HasError()
T1F74 349296:736.539 JLINK_IsHalted()
T1F74 349296:737.116 - 0.590ms returns FALSE
T1F74 349296:837.525 JLINK_HasError()
T1F74 349296:837.582 JLINK_IsHalted()
T1F74 349296:838.178 - 0.618ms returns FALSE
T1F74 349296:938.933 JLINK_HasError()
T1F74 349296:939.023 JLINK_IsHalted()
T1F74 349296:943.050 - 4.076ms returns TRUE
T1F74 349296:943.141 JLINK_HasError()
T1F74 349296:943.187 JLINK_Halt()
T1F74 349296:943.227 - 0.059ms returns 0x00
T1F74 349296:943.275 JLINK_IsHalted()
T1F74 349296:943.315 - 0.060ms returns TRUE
T1F74 349296:944.098 JLINK_IsHalted()
T1F74 349296:944.153 - 0.071ms returns TRUE
T1F74 349296:944.190 JLINK_IsHalted()
T1F74 349296:944.222 - 0.048ms returns TRUE
T1F74 349296:944.258 JLINK_HasError()
T1F74 349296:944.294 JLINK_ReadReg(R15 (PC))
T1F74 349296:944.334 - 0.056ms returns 0x000799A2
T1F74 349296:944.369 JLINK_ReadReg(XPSR)
T1F74 349296:944.402 - 0.050ms returns 0x41000000
T1F74 349296:944.444 JLINK_HasError()
T1F74 349296:944.478 JLINK_ClrBPEx(BPHandle = 0x00000008)
T1F74 349296:944.516 - 0.059ms returns 0x00
T1F74 349296:944.560 JLINK_HasError()
T1F74 349296:944.604 JLINK_ClrBPEx(BPHandle = 0x00000009)
T1F74 349296:944.640 - 0.052ms returns 0x00
T1F74 349296:944.675 JLINK_HasError()
T1F74 349296:944.714 JLINK_ClrBPEx(BPHandle = 0x0000000A)
T1F74 349296:944.747 - 0.049ms returns 0x00
T1F74 349296:944.781 JLINK_HasError()
T1F74 349296:944.816 JLINK_HasError()
T1F74 349296:944.850 JLINK_ReadMemU32(0xE000ED30, 0x1 Items)
T1F74 349296:944.894   CPU_ReadMem(4 bytes @ 0xE000ED30)
T1F74 349296:945.492   Data:  02 00 00 00
T1F74 349296:945.558 - 0.724ms returns 1 (0x1)
T1F74 349296:945.598 JLINK_ReadMemU32(0xE0001028, 0x1 Items)
T1F74 349296:945.642   CPU_ReadMem(4 bytes @ 0xE0001028)
T1F74 349296:946.181   Data:  00 00 00 00
T1F74 349296:946.211   Debug reg: DWT_FUNC[0]
T1F74 349296:946.229 - 0.638ms returns 1 (0x1)
T1F74 349296:946.247 JLINK_ReadMemU32(0xE0001038, 0x1 Items)
T1F74 349296:946.264   CPU_ReadMem(4 bytes @ 0xE0001038)
T1F74 349296:946.744   Data:  00 02 00 00
T1F74 349296:946.770   Debug reg: DWT_FUNC[1]
T1F74 349296:946.788 - 0.547ms returns 1 (0x1)
T1F74 349296:946.803 JLINK_ReadMemU32(0xE0001048, 0x1 Items)
T1F74 349296:946.821   CPU_ReadMem(4 bytes @ 0xE0001048)
T1F74 349296:947.280   Data:  00 00 00 00
T1F74 349296:947.306   Debug reg: DWT_FUNC[2]
T1F74 349296:947.324 - 0.526ms returns 1 (0x1)
T1F74 349296:947.339 JLINK_ReadMemU32(0xE0001058, 0x1 Items)
T1F74 349296:947.356   CPU_ReadMem(4 bytes @ 0xE0001058)
T1F74 349296:947.757   Data:  00 00 00 00
T1F74 349296:947.783   Debug reg: DWT_FUNC[3]
T1F74 349296:947.802 - 0.469ms returns 1 (0x1)
T1F74 349296:947.863 JLINK_HasError()
T1F74 349296:947.877 JLINK_ReadReg(R0)
T1F74 349296:947.893 - 0.021ms returns 0x00000000
T1F74 349296:947.906 JLINK_ReadReg(R1)
T1F74 349296:947.919 - 0.019ms returns 0x00000014
T1F74 349296:947.933 JLINK_ReadReg(R2)
T1F74 349296:947.946 - 0.019ms returns 0x20002EFC
T1F74 349296:947.959 JLINK_ReadReg(R3)
T1F74 349296:947.972 - 0.019ms returns 0x00000008
T1F74 349296:947.985 JLINK_ReadReg(R4)
T1F74 349296:947.998 - 0.018ms returns 0x0007B284
T1F74 349296:948.011 JLINK_ReadReg(R5)
T1F74 349296:948.023 - 0.018ms returns 0x00000000
T1F74 349296:948.037 JLINK_ReadReg(R6)
T1F74 349296:948.050 - 0.019ms returns 0x00000001
T1F74 349296:948.063 JLINK_ReadReg(R7)
T1F74 349296:948.080 - 0.026ms returns 0x00000000
T1F74 349296:948.096 JLINK_ReadReg(R8)
T1F74 349296:948.109 - 0.019ms returns 0x00000000
T1F74 349296:948.122 JLINK_ReadReg(R9)
T1F74 349296:948.135 - 0.018ms returns 0x00000000
T1F74 349296:948.148 JLINK_ReadReg(R10)
T1F74 349296:948.161 - 0.019ms returns 0x00000000
T1F74 349296:948.174 JLINK_ReadReg(R11)
T1F74 349296:948.189 - 0.020ms returns 0x00000000
T1F74 349296:948.203 JLINK_ReadReg(R12)
T1F74 349296:948.220 - 0.024ms returns 0x00000000
T1F74 349296:948.235 JLINK_ReadReg(R13 (SP))
T1F74 349296:948.248 - 0.019ms returns 0x20005438
T1F74 349296:948.262 JLINK_ReadReg(R14)
T1F74 349296:948.274 - 0.018ms returns 0x0007A647
T1F74 349296:948.287 JLINK_ReadReg(R15 (PC))
T1F74 349296:948.300 - 0.019ms returns 0x000799A2
T1F74 349296:948.314 JLINK_ReadReg(XPSR)
T1F74 349296:948.326 - 0.019ms returns 0x41000000
T1F74 349296:948.340 JLINK_ReadReg(MSP)
T1F74 349296:948.352 - 0.018ms returns 0x20005438
T1F74 349296:948.366 JLINK_ReadReg(PSP)
T1F74 349296:948.378 - 0.018ms returns 0x00000000
T1F74 349296:948.392 JLINK_ReadReg(CFBP)
T1F74 349296:948.404 - 0.019ms returns 0x00000000
T1F74 349296:948.418 JLINK_ReadReg(FPSCR)
T1F74 349296:954.038 - 5.634ms returns 0x00000000
T1F74 349296:954.061 JLINK_ReadReg(FPS0)
T1F74 349296:954.078 - 0.025ms returns 0x00000000
T1F74 349296:954.096 JLINK_ReadReg(FPS1)
T1F74 349296:954.109 - 0.019ms returns 0x00000000
T1F74 349296:954.124 JLINK_ReadReg(FPS2)
T1F74 349296:954.140 - 0.021ms returns 0x00000000
T1F74 349296:954.155 JLINK_ReadReg(FPS3)
T1F74 349296:954.173 - 0.024ms returns 0x00000000
T1F74 349296:954.187 JLINK_ReadReg(FPS4)
T1F74 349296:954.204 - 0.023ms returns 0x00000000
T1F74 349296:954.218 JLINK_ReadReg(FPS5)
T1F74 349296:954.234 - 0.022ms returns 0x00000000
T1F74 349296:954.248 JLINK_ReadReg(FPS6)
T1F74 349296:954.261 - 0.019ms returns 0x00000000
T1F74 349296:954.276 JLINK_ReadReg(FPS7)
T1F74 349296:954.288 - 0.018ms returns 0x00000000
T1F74 349296:954.301 JLINK_ReadReg(FPS8)
T1F74 349296:954.314 - 0.019ms returns 0x00000000
T1F74 349296:954.327 JLINK_ReadReg(FPS9)
T1F74 349296:954.341 - 0.019ms returns 0x00000000
T1F74 349296:954.354 JLINK_ReadReg(FPS10)
T1F74 349296:954.367 - 0.018ms returns 0x00000000
T1F74 349296:954.380 JLINK_ReadReg(FPS11)
T1F74 349296:954.392 - 0.019ms returns 0x00000000
T1F74 349296:954.405 JLINK_ReadReg(FPS12)
T1F74 349296:954.418 - 0.018ms returns 0x00000000
T1F74 349296:954.431 JLINK_ReadReg(FPS13)
T1F74 349296:954.444 - 0.019ms returns 0x00000000
T1F74 349296:954.457 JLINK_ReadReg(FPS14)
T1F74 349296:954.470 - 0.018ms returns 0x00000000
T1F74 349296:954.483 JLINK_ReadReg(FPS15)
T1F74 349296:954.495 - 0.018ms returns 0x00000000
T1F74 349296:954.508 JLINK_ReadReg(FPS16)
T1F74 349296:954.521 - 0.018ms returns 0x00000000
T1F74 349296:954.534 JLINK_ReadReg(FPS17)
T1F74 349296:954.547 - 0.018ms returns 0x00000000
T1F74 349296:954.560 JLINK_ReadReg(FPS18)
T1F74 349296:954.572 - 0.018ms returns 0x00000000
T1F74 349296:954.585 JLINK_ReadReg(FPS19)
T1F74 349296:954.598 - 0.018ms returns 0x00000000
T1F74 349296:954.611 JLINK_ReadReg(FPS20)
T1F74 349296:954.623 - 0.018ms returns 0x00000000
T1F74 349296:954.636 JLINK_ReadReg(FPS21)
T1F74 349296:954.649 - 0.018ms returns 0x00000000
T1F74 349296:954.662 JLINK_ReadReg(FPS22)
T1F74 349296:954.675 - 0.019ms returns 0x00000000
T1F74 349296:954.688 JLINK_ReadReg(FPS23)
T1F74 349296:954.701 - 0.018ms returns 0x00000000
T1F74 349296:954.713 JLINK_ReadReg(FPS24)
T1F74 349296:954.726 - 0.019ms returns 0x00000000
T1F74 349296:954.739 JLINK_ReadReg(FPS25)
T1F74 349296:954.752 - 0.018ms returns 0x00000000
T1F74 349296:954.765 JLINK_ReadReg(FPS26)
T1F74 349296:954.778 - 0.018ms returns 0x00000000
T1F74 349296:954.791 JLINK_ReadReg(FPS27)
T1F74 349296:954.803 - 0.018ms returns 0x00000000
T1F74 349296:954.816 JLINK_ReadReg(FPS28)
T1F74 349296:954.829 - 0.018ms returns 0x00000000
T1F74 349296:954.842 JLINK_ReadReg(FPS29)
T1F74 349296:954.854 - 0.019ms returns 0x00000000
T1F74 349296:954.868 JLINK_ReadReg(FPS30)
T1F74 349296:954.885 - 0.023ms returns 0x00000000
T1F74 349296:954.898 JLINK_ReadReg(FPS31)
T1F74 349296:954.910 - 0.018ms returns 0x00000000
T9038 349296:955.517 JLINK_ReadMemEx(0x00000000, 0x4 Bytes, Flags = 0x02000000)
T9038 349296:955.542   CPU_ReadMem(64 bytes @ 0x00000000)
T9038 349296:956.401    -- Updating C cache (64 bytes @ 0x00000000)
T9038 349296:956.430    -- Read from C cache (4 bytes @ 0x00000000)
T9038 349296:956.454   Data:  00 04 00 20
T9038 349296:956.486 - 0.977ms returns 4 (0x4)
T9038 349296:956.529 JLINK_HasError()
T9038 349296:956.547 JLINK_ReadMemU32(0xE0001004, 0x1 Items)
T9038 349296:956.567   CPU_ReadMem(4 bytes @ 0xE0001004)
T9038 349296:956.900   Data:  26 2D 37 01
T9038 349296:956.926   Debug reg: DWT_CYCCNT
T9038 349296:956.945 - 0.403ms returns 1 (0x1)
T9038 349296:959.437 JLINK_ReadMemEx(0x000799A2, 0x2 Bytes, Flags = 0x02000000)
T9038 349296:959.474   CPU_ReadMem(64 bytes @ 0x00079980)
T9038 349296:960.353    -- Updating C cache (64 bytes @ 0x00079980)
T9038 349296:960.374    -- Read from C cache (2 bytes @ 0x000799A2)
T9038 349296:960.390   Data:  2F B9
T9038 349296:960.406 - 0.975ms returns 2 (0x2)
T9038 349296:960.420 JLINK_ReadMemEx(0x000799A4, 0x3C Bytes, Flags = 0x02000000)
T9038 349296:960.433   CPU_ReadMem(64 bytes @ 0x000799C0)
T9038 349296:961.358    -- Updating C cache (64 bytes @ 0x000799C0)
T9038 349296:961.375    -- Read from C cache (60 bytes @ 0x000799A4)
T9038 349296:961.392   Data:  4F F4 40 51 88 68 FD F7 43 FF 98 B9 01 F0 0A FC ...
T9038 349296:961.408 - 0.993ms returns 60 (0x3C)
T1F74 349299:008.160 JLINK_ReadMemEx(0x000799A2, 0x2 Bytes, Flags = 0x02000000)
T1F74 349299:008.212    -- Read from C cache (2 bytes @ 0x000799A2)
T1F74 349299:008.236   Data:  2F B9
T1F74 349299:008.260 - 0.108ms returns 2 (0x2)
